
**** 05/21/22 10:56:26 ********* PSpice 9.2 (Mar 2000) ******** ID# 1 ********

 ** Profile: "SCHEMATIC1-soal2"  [ D:\2\soal2-schematic1-soal2.sim ] 


 ****     CIRCUIT DESCRIPTION


******************************************************************************




** Creating circuit file "soal2-schematic1-soal2.sim.cir" 
** WARNING: THIS AUTOMATICALLY GENERATED FILE MAY BE OVERWRITTEN BY SUBSEQUENT SIMULATIONS

*Libraries: 
* Local Libraries :
* From [PSPICE NETLIST] section of C:\Program Files\Orcad\PSpice\PSpice.ini file:
.lib "nom.lib" 

*Analysis directives: 
.TRAN  0 10ns 0 
.PROBE V(*) I(*) W(*) D(*) NOISE(*) 
.INC ".\soal2-SCHEMATIC1.net" 



**** INCLUDING soal2-SCHEMATIC1.net ****
* source SOAL2
X_H1    N04590 0 N03512 0 SCHEMATIC1_H1 
V_V2         N00116 0 2.7
R_R1         N00161 N00116  1  
G_G1         N00116 N00161 N00161 N03512 0.5
R_R2         N00161 N04590  3  
R_R4         0 N00116  6m  
R_R3         N03512 N00161  6  

.subckt SCHEMATIC1_H1 1 2 3 4  
H_H1         3 4 VH_H1 4
VH_H1         1 2 0V
.ends SCHEMATIC1_H1

**** RESUMING soal2-schematic1-soal2.sim.cir ****
.END

**** 05/21/22 10:56:26 ********* PSpice 9.2 (Mar 2000) ******** ID# 1 ********

 ** Profile: "SCHEMATIC1-soal2"  [ D:\2\soal2-schematic1-soal2.sim ] 


 ****     INITIAL TRANSIENT SOLUTION       TEMPERATURE =   27.000 DEG C


******************************************************************************



 NODE   VOLTAGE     NODE   VOLTAGE     NODE   VOLTAGE     NODE   VOLTAGE


(N00116)    2.7000 (N00161)    1.8692 (N03512)    2.4923 (N04590)    0.0000 




    VOLTAGE SOURCE CURRENTS
    NAME         CURRENT

    V_V2        -4.505E+02
    X_H1.VH_H1   6.231E-01

    TOTAL POWER DISSIPATION   1.22E+03  WATTS



          JOB CONCLUDED

          TOTAL JOB TIME            0.00
